
T0A40 000:000 SEGGER J-Link V4.72a Log File (0000ms, 0000ms total)
T0A40 000:000 DLL Compiled: Jun 26 2013 11:49:14 (0000ms, 0000ms total)
T0A40 000:000 Logging started @ 2017-09-28 17:53 (0000ms, 0000ms total)
T0A40 000:000 JLINK_SetWarnOutHandler(...) (0000ms, 0000ms total)
T0A40 000:000 JLINK_OpenEx(...)
Firmware: J-Link V9 compiled Mar 29 2016 18:46:37
Hardware: V9.40
S/N: 59400920
Feature(s): RDI, GDB, FlashDL, FlashBP, JFlash  returns O.K. (0032ms, 0032ms total)
T0A40 000:032 JLINK_GetEmuCaps()  returns 0xB9FF7BBF (0000ms, 0032ms total)
T0A40 000:032 JLINK_TIF_GetAvailable(...) (0001ms, 0033ms total)
T0A40 000:033 JLINK_SetErrorOutHandler(...) (0000ms, 0033ms total)
T0A40 000:033 JLINK_ExecCommand("ProjectFile = "F:\AmV01\Code\Tesla_1.0.1.170516_Alpha\mdk_Prj\JLinkSettings.ini"", ...)
                JLINK_AddMirrorAreaEx(Addr = 0x00000000, Size = 0x00000000) (0000ms, 0000ms total)
              Device "CORTEX-M4" selected (0 KB flash, 0 KB RAM).  returns 0x00 (0001ms, 0034ms total)
T0A40 000:034 JLINK_ExecCommand("Device = STM32F429IGTx", ...)
                JLINK_AddMirrorAreaEx(Addr = 0x00000000, Size = 0x00000000) (0000ms, 0000ms total)
              Device "CORTEX-M4" selected (0 KB flash, 0 KB RAM).  returns 0x00 (0000ms, 0034ms total)
T0A40 000:034 JLINK_ExecCommand("DisableConnectionTimeout", ...)  returns 0x00 (0000ms, 0034ms total)
T0A40 000:034 JLINK_GetHardwareVersion()  returns 0x16F30 (0000ms, 0034ms total)
T0A40 000:034 JLINK_GetDLLVersion()  returns 47201 (0000ms, 0034ms total)
T0A40 000:034 JLINK_GetFirmwareString(...) (0000ms, 0034ms total)
T0A40 000:034 JLINK_GetDLLVersion()  returns 47201 (0000ms, 0034ms total)
T0A40 000:034 JLINK_GetCompileDateTime() (0000ms, 0034ms total)
T0A40 000:034 JLINK_GetFirmwareString(...) (0000ms, 0034ms total)
T0A40 000:034 JLINK_GetHardwareVersion()  returns 0x16F30 (0000ms, 0034ms total)
T0A40 000:034 JLINK_TIF_Select(JLINKARM_TIF_SWD)  returns 0x00 (0005ms, 0039ms total)
T0A40 000:039 JLINK_SetSpeed(20000) (0001ms, 0040ms total)
T0A40 000:040 JLINK_GetId() >0x108 TIF>Found SWD-DP with ID 0x2BA01477 >0x0D TIF> >0x21 TIF> >0x0D TIF> >0x28 TIF> >0x0D TIF> >0x28 TIF> >0x0D TIF> >0x21 TIF> >0x0D TIF> >0x21 TIF> >0x0D TIF> >0x28 TIF> >0x0D TIF> >0x21 TIF> >0x0D TIF> >0x21 TIF> >0x0D TIF> >0x21 TIF> >0x0D TIF> >0x21 TIF> >0x0D TIF> >0x21 TIF> >0x0D TIF> >0x28 TIF> >0x0D TIF> >0x28 TIF> >0x0D TIF> >0x21 TIF> >0x0D TIF> >0x21 TIF> >0x0D TIF> >0x28 TIF> >0x0D TIF> >0x21 TIF> >0x0D TIF> >0x21 TIF> >0x0D TIF> >0x28 TIF> >0x0D TIF>
 >0x28 TIF> >0x0D TIF> >0x28 TIF> >0x0D TIF> >0x21 TIF> >0x0D TIF> >0x21 TIF> >0x0D TIF> >0x28 TIF> >0x0D TIF> >0x28 TIF> >0x0D TIF> >0x28 TIF> >0x0D TIF> >0x21 TIF> >0x0D TIF> >0x21 TIF> >0x0D TIF> >0x21 TIF>TPIU fitted.ETM fitted. >0x0D TIF> >0x28 TIF> >0x0D TIF> >0x21 TIF> >0x0D TIF> >0x21 TIF> >0x0D TIF> >0x28 TIF> >0x0D TIF> >0x21 TIF> >0x0D TIF> >0x21 TIF>FPUnit: 6 code (BP) slots and 2 literal slots >0x0D TIF> >0x28 TIF> >0x0D TIF> >0x21 TIF> >0x0D TIF> >0x21 TIF> >0x0D TIF> >0x28 TIF> >0x0D TIF>
 >0x21 TIF> >0x0D TIF> >0x21 TIF> >0x0D TIF> >0x28 TIF> >0x0D TIF> >0x21 TIF> >0x0D TIF> >0x21 TIF> >0x0D TIF> >0x28 TIF> >0x0D TIF> >0x21 TIF> >0x0D TIF> >0x21 TIF>Found Cortex-M4 r0p1, Little endian. >0x0D TIF> >0x21 TIF>  returns 0x2BA01477 (0112ms, 0152ms total)
T0A40 000:152 JLINK_GetDLLVersion()  returns 47201 (0000ms, 0152ms total)
T0A40 000:152 JLINK_CORE_GetFound()  returns 0xE0000FF (0000ms, 0152ms total)
T0A40 000:152 JLINK_GetDebugInfo(0x100) -- Value=0xE00FF003  returns 0x00 (0000ms, 0152ms total)
T0A40 000:152 JLINK_GetDebugInfo(0x101)  returns 0xFFFFFFFF (0000ms, 0152ms total)
T0A40 000:152 JLINK_ReadMemEx(0xE0041FF0, 0x0010 Bytes, ..., AccessWidth = 33554436) -- CPU is running -- CPU_ReadMem(16 bytes @ 0xE0041FF0) -- Data:  0D 00 00 00 90 00 00 00 05 00 00 00 B1 00 00 00  returns 0x10 (0003ms, 0155ms total)
T0A40 000:155 JLINK_GetDebugInfo(0x102)  returns 0xFFFFFFFF (0000ms, 0155ms total)
T0A40 000:155 JLINK_GetDebugInfo(0x103)  returns 0xFFFFFFFF (0000ms, 0155ms total)
T0A40 000:155 JLINK_ReadMemEx(0xE0040FF0, 0x0010 Bytes, ..., AccessWidth = 33554436) -- CPU is running -- CPU_ReadMem(16 bytes @ 0xE0040FF0) -- Data:  0D 00 00 00 90 00 00 00 05 00 00 00 B1 00 00 00  returns 0x10 (0001ms, 0156ms total)
T0A40 000:156 JLINK_GetDebugInfo(0x104)  returns 0xFFFFFFFF (0000ms, 0156ms total)
T0A40 000:156 JLINK_GetDebugInfo(0x105)  returns 0xFFFFFFFF (0000ms, 0156ms total)
T0A40 000:156 JLINK_GetDebugInfo(0x106)  returns 0xFFFFFFFF (0000ms, 0156ms total)
T0A40 000:156 JLINK_GetDebugInfo(0x107)  returns 0xFFFFFFFF (0000ms, 0156ms total)
T0A40 000:156 JLINK_GetDebugInfo(0x10C)  returns 0xFFFFFFFF (0000ms, 0156ms total)
T0A40 000:156 JLINK_ReadMemU32(0xE000EF40, 0x0001 Items, ...) -- CPU is running -- CPU_ReadMem(4 bytes @ 0xE000EF40) -- Data:  21 00 11 10  returns 0x01 (0001ms, 0157ms total)
T0A40 000:157 JLINK_ReadMemU32(0xE000EF44, 0x0001 Items, ...) -- CPU is running -- CPU_ReadMem(4 bytes @ 0xE000EF44) -- Data:  11 00 00 11  returns 0x01 (0001ms, 0158ms total)
T0A40 000:158 JLINK_ReadMemU32(0xE000ED00, 0x0001 Items, ...) -- CPU is running -- CPU_ReadMem(4 bytes @ 0xE000ED00) -- Data:  41 C2 0F 41  returns 0x01 (0001ms, 0159ms total)
T0A40 000:159 JLINK_GetDebugInfo(0x10F)  returns 0xFFFFFFFF (0000ms, 0159ms total)
T0A40 000:159 JLINK_SetResetType(JLINKARM_RESET_TYPE_NORMAL)  returns JLINKARM_RESET_TYPE_NORMAL (0000ms, 0159ms total)
T0A40 000:159 JLINK_Reset() -- CPU is running -- CPU_WriteMem(4 bytes @ 0xE000EDF0) -- CPU is running -- CPU_WriteMem(4 bytes @ 0xE000EDFC) >0x35 TIF> -- CPU is running -- CPU_WriteMem(4 bytes @ 0xE000ED0C) -- CPU is running -- CPU_ReadMem(4 bytes @ 0xE000EDF0) -- CPU is running -- CPU_ReadMem(4 bytes @ 0xE000EDF0) -- CPU is running -- CPU_WriteMem(4 bytes @ 0xE000EDF0) -- CPU is running -- CPU_WriteMem(4 bytes @ 0xE000EDFC) -- CPU is running -- CPU_ReadMem(4 bytes @ 0xE000EDF0)
 -- CPU_WriteMem(4 bytes @ 0xE0002000) (0022ms, 0181ms total)
T0A40 000:181 JLINK_ReadReg(R15 (PC))  returns 0x08000340 (0000ms, 0181ms total)
T0A40 000:181 JLINK_ReadReg(XPSR)  returns 0x01000000 (0000ms, 0181ms total)
T0A40 000:181 JLINK_Halt()  returns 0x00 (0000ms, 0181ms total)
T0A40 000:181 JLINK_ReadMemU32(0xE000EDF0, 0x0001 Items, ...) -- CPU_ReadMem(4 bytes @ 0xE000EDF0) -- Data:  03 00 03 00  returns 0x01 (0001ms, 0182ms total)
T0A40 000:182 JLINK_WriteU32(0xE000EDF0, 0xA05F0003) -- CPU_WriteMem(4 bytes @ 0xE000EDF0)  returns 0x00 (0001ms, 0183ms total)
T0A40 000:183 JLINK_WriteU32(0xE000EDFC, 0x01000000) -- CPU_WriteMem(4 bytes @ 0xE000EDFC)  returns 0x00 (0001ms, 0184ms total)
T0A40 000:184 JLINK_GetHWStatus(...)  returns 0x00 (0001ms, 0185ms total)
T0A40 000:185 JLINK_GetNumBPUnits(Type = 0xFFFFFF00)  returns 0x06 (0000ms, 0185ms total)
T0A40 000:185 JLINK_GetNumBPUnits(Type = 0xF0)  returns 0x2000 (0000ms, 0185ms total)
T0A40 000:185 JLINK_GetNumWPUnits()  returns 0x04 (0000ms, 0185ms total)
T0A40 000:185 JLINK_GetSpeed()  returns 0x2EE0 (0000ms, 0185ms total)
T0A40 000:185 JLINK_ReadMemU32(0xE000E004, 0x0001 Items, ...) -- CPU_ReadMem(4 bytes @ 0xE000E004) -- Data:  02 00 00 00  returns 0x01 (0001ms, 0186ms total)
T0A40 000:186 JLINK_ReadMemU32(0xE000E004, 0x0001 Items, ...) -- CPU_ReadMem(4 bytes @ 0xE000E004) -- Data:  02 00 00 00  returns 0x01 (0001ms, 0187ms total)
T0A40 000:187 JLINK_WriteMemEx(0xE0001000, 0x001C Bytes, ..., AccessWidth = 33554436) -- Data:  01 00 00 00 00 00 00 00 00 00 00 00 00 00 00 00 ... -- CPU_WriteMem(28 bytes @ 0xE0001000)  returns 0x1C (0001ms, 0188ms total)
T0A40 000:188 JLINK_ReadReg(R15 (PC))  returns 0x08000340 (0000ms, 0188ms total)
T0A40 000:188 JLINK_ReadReg(XPSR)  returns 0x01000000 (0000ms, 0188ms total)
T0A40 000:349 JLINK_SetResetType(JLINKARM_RESET_TYPE_NORMAL)  returns JLINKARM_RESET_TYPE_NORMAL (0000ms, 0188ms total)
T0A40 000:349 JLINK_Reset() -- CPU_WriteMem(4 bytes @ 0xE000EDF0) -- CPU_WriteMem(4 bytes @ 0xE000EDFC) >0x35 TIF> -- CPU_WriteMem(4 bytes @ 0xE000ED0C) -- CPU_ReadMem(4 bytes @ 0xE000EDF0) -- CPU_ReadMem(4 bytes @ 0xE000EDF0) -- CPU_WriteMem(4 bytes @ 0xE000EDF0) -- CPU_WriteMem(4 bytes @ 0xE000EDFC) -- CPU is running -- CPU_ReadMem(4 bytes @ 0xE000EDF0) -- CPU_WriteMem(4 bytes @ 0xE0002000) (0022ms, 0210ms total)
T0A40 000:371 JLINK_ReadReg(R15 (PC))  returns 0x08000340 (0000ms, 0210ms total)
T0A40 000:371 JLINK_ReadReg(XPSR)  returns 0x01000000 (0000ms, 0210ms total)
T0A40 000:373 JLINK_ReadMemEx(0x08000340, 0x003C Bytes, ..., AccessWidth = 33554432)Mis-aligned memory write: Address: 0x08000340, NumBytes: 60, Alignment: 2 (Halfword-aligned)
  ***** Mis-aligned memory write: Address: 0x08000340, NumBytes: 60, Alignment: 2 (Halfword-aligned) -- CPU_ReadMem(60 bytes @ 0x08000340) -- Data:  0A 48 80 47 0A 48 80 47 0A 48 00 47 FE E7 FE E7 ...  returns 0x3C (0002ms, 0212ms total)
T0A40 001:034 JLINK_ReadReg(R0)  returns 0x00000000 (0002ms, 0214ms total)
T0A40 001:036 JLINK_ReadReg(R1)  returns 0x00000000 (0000ms, 0214ms total)
T0A40 001:036 JLINK_ReadReg(R2)  returns 0x00000000 (0000ms, 0214ms total)
T0A40 001:036 JLINK_ReadReg(R3)  returns 0x00000000 (0000ms, 0214ms total)
T0A40 001:036 JLINK_ReadReg(R4)  returns 0x00000000 (0000ms, 0214ms total)
T0A40 001:036 JLINK_ReadReg(R5)  returns 0x00000000 (0000ms, 0214ms total)
T0A40 001:036 JLINK_ReadReg(R6)  returns 0x00000000 (0000ms, 0214ms total)
T0A40 001:037 JLINK_ReadReg(R7)  returns 0x00000000 (0000ms, 0214ms total)
T0A40 001:037 JLINK_ReadReg(R8)  returns 0x00000000 (0000ms, 0214ms total)
T0A40 001:037 JLINK_ReadReg(R9)  returns 0x00000000 (0000ms, 0214ms total)
T0A40 001:037 JLINK_ReadReg(R10)  returns 0x00000000 (0000ms, 0214ms total)
T0A40 001:037 JLINK_ReadReg(R11)  returns 0x00000000 (0000ms, 0214ms total)
T0A40 001:037 JLINK_ReadReg(R12)  returns 0x00000000 (0000ms, 0214ms total)
T0A40 001:037 JLINK_ReadReg(R13 (SP))  returns 0x200078E8 (0000ms, 0214ms total)
T0A40 001:037 JLINK_ReadReg(R14)  returns 0xFFFFFFFF (0000ms, 0214ms total)
T0A40 001:037 JLINK_ReadReg(R15 (PC))  returns 0x08000340 (0000ms, 0214ms total)
T0A40 001:037 JLINK_ReadReg(XPSR)  returns 0x01000000 (0000ms, 0214ms total)
T0A40 001:037 JLINK_ReadReg(MSP)  returns 0x200078E8 (0000ms, 0214ms total)
T0A40 001:037 JLINK_ReadReg(PSP)  returns 0x00000000 (0000ms, 0214ms total)
T0A40 001:037 JLINK_ReadReg(CFBP)  returns 0x00000000 (0000ms, 0214ms total)
T0A40 001:037 JLINK_ReadReg(FPSCR)  returns 0x00000000 (0003ms, 0217ms total)
T0A40 001:040 JLINK_ReadReg(FPS0)  returns 0x00000000 (0000ms, 0217ms total)
T0A40 001:040 JLINK_ReadReg(FPS1)  returns 0x00000000 (0000ms, 0217ms total)
T0A40 001:040 JLINK_ReadReg(FPS2)  returns 0x00000000 (0000ms, 0217ms total)
T0A40 001:040 JLINK_ReadReg(FPS3)  returns 0x00000000 (0000ms, 0217ms total)
T0A40 001:040 JLINK_ReadReg(FPS4)  returns 0x00000000 (0000ms, 0217ms total)
T0A40 001:040 JLINK_ReadReg(FPS5)  returns 0x00000000 (0000ms, 0217ms total)
T0A40 001:040 JLINK_ReadReg(FPS6)  returns 0x00000000 (0000ms, 0217ms total)
T0A40 001:040 JLINK_ReadReg(FPS7)  returns 0x00000000 (0000ms, 0217ms total)
T0A40 001:040 JLINK_ReadReg(FPS8)  returns 0x00000000 (0000ms, 0217ms total)
T0A40 001:040 JLINK_ReadReg(FPS9)  returns 0x00000000 (0000ms, 0217ms total)
T0A40 001:040 JLINK_ReadReg(FPS10)  returns 0x00000000 (0000ms, 0217ms total)
T0A40 001:040 JLINK_ReadReg(FPS11)  returns 0x00000000 (0000ms, 0217ms total)
T0A40 001:040 JLINK_ReadReg(FPS12)  returns 0x00000000 (0000ms, 0217ms total)
T0A40 001:040 JLINK_ReadReg(FPS13)  returns 0x00000000 (0000ms, 0217ms total)
T0A40 001:040 JLINK_ReadReg(FPS14)  returns 0x00000000 (0000ms, 0217ms total)
T0A40 001:040 JLINK_ReadReg(FPS15)  returns 0x00000000 (0000ms, 0217ms total)
T0A40 001:040 JLINK_ReadReg(FPS16)  returns 0x00000000 (0000ms, 0217ms total)
T0A40 001:040 JLINK_ReadReg(FPS17)  returns 0x00000000 (0000ms, 0217ms total)
T0A40 001:040 JLINK_ReadReg(FPS18)  returns 0x00000000 (0000ms, 0217ms total)
T0A40 001:040 JLINK_ReadReg(FPS19)  returns 0x00000000 (0000ms, 0217ms total)
T0A40 001:040 JLINK_ReadReg(FPS20)  returns 0x00000000 (0000ms, 0217ms total)
T0A40 001:040 JLINK_ReadReg(FPS21)  returns 0x00000000 (0000ms, 0217ms total)
T0A40 001:040 JLINK_ReadReg(FPS22)  returns 0x00000000 (0000ms, 0217ms total)
T0A40 001:040 JLINK_ReadReg(FPS23)  returns 0x00000000 (0000ms, 0217ms total)
T0A40 001:040 JLINK_ReadReg(FPS24)  returns 0x00000000 (0000ms, 0217ms total)
T0A40 001:040 JLINK_ReadReg(FPS25)  returns 0x00000000 (0000ms, 0217ms total)
T0A40 001:040 JLINK_ReadReg(FPS26)  returns 0x00000000 (0000ms, 0217ms total)
T0A40 001:040 JLINK_ReadReg(FPS27)  returns 0x00000000 (0000ms, 0217ms total)
T0A40 001:040 JLINK_ReadReg(FPS28)  returns 0x00000000 (0000ms, 0217ms total)
T0A40 001:040 JLINK_ReadReg(FPS29)  returns 0x00000000 (0000ms, 0217ms total)
T0A40 001:040 JLINK_ReadReg(FPS30)  returns 0x00000000 (0000ms, 0217ms total)
T0A40 001:040 JLINK_ReadReg(FPS31)  returns 0x00000000 (0000ms, 0217ms total)
T0A40 001:045 JLINK_ReadMemEx(0x20003B4C, 0x0004 Bytes, ..., AccessWidth = 33554432)Mis-aligned memory write: Address: 0x20003B4C, NumBytes: 4, Alignment: 2 (Halfword-aligned)
  ***** Mis-aligned memory write: Address: 0x20003B4C, NumBytes: 4, Alignment: 2 (Halfword-aligned) -- CPU_ReadMem(4 bytes @ 0x20003B4C) -- Data:  00 00 00 00  returns 0x04 (0001ms, 0218ms total)
T0A40 001:055 JLINK_ReadMemEx(0x2000002C, 0x0004 Bytes, ..., AccessWidth = 33554432)Mis-aligned memory write: Address: 0x2000002C, NumBytes: 4, Alignment: 2 (Halfword-aligned)
  ***** Mis-aligned memory write: Address: 0x2000002C, NumBytes: 4, Alignment: 2 (Halfword-aligned) -- CPU_ReadMem(4 bytes @ 0x2000002C) -- Data:  00 00 00 00  returns 0x04 (0002ms, 0220ms total)
T0A40 001:060 JLINK_ReadMemEx(0x20000028, 0x0004 Bytes, ..., AccessWidth = 33554432)Mis-aligned memory write: Address: 0x20000028, NumBytes: 4, Alignment: 2 (Halfword-aligned)
  ***** Mis-aligned memory write: Address: 0x20000028, NumBytes: 4, Alignment: 2 (Halfword-aligned) -- CPU_ReadMem(4 bytes @ 0x20000028) -- Data:  00 00 00 00  returns 0x04 (0001ms, 0221ms total)
T0A40 001:072 JLINK_ReadMemEx(0x20000240, 0x0004 Bytes, ..., AccessWidth = 33554432)Mis-aligned memory write: Address: 0x20000240, NumBytes: 4, Alignment: 2 (Halfword-aligned)
  ***** Mis-aligned memory write: Address: 0x20000240, NumBytes: 4, Alignment: 2 (Halfword-aligned) -- CPU_ReadMem(4 bytes @ 0x20000240) -- Data:  00 00 00 00  returns 0x04 (0001ms, 0222ms total)
T0A40 001:102 JLINK_ReadMemEx(0x20002EA0, 0x0004 Bytes, ..., AccessWidth = 33554432)Mis-aligned memory write: Address: 0x20002EA0, NumBytes: 4, Alignment: 2 (Halfword-aligned)
  ***** Mis-aligned memory write: Address: 0x20002EA0, NumBytes: 4, Alignment: 2 (Halfword-aligned) -- CPU_ReadMem(4 bytes @ 0x20002EA0) -- Data:  00 00 00 00  returns 0x04 (0001ms, 0223ms total)
T0A40 001:109 JLINK_ReadMemEx(0x20002E9C, 0x0004 Bytes, ..., AccessWidth = 33554432)Mis-aligned memory write: Address: 0x20002E9C, NumBytes: 4, Alignment: 2 (Halfword-aligned)
  ***** Mis-aligned memory write: Address: 0x20002E9C, NumBytes: 4, Alignment: 2 (Halfword-aligned) -- CPU_ReadMem(4 bytes @ 0x20002E9C) -- Data:  00 00 00 00  returns 0x04 (0002ms, 0225ms total)
T0A40 001:126 JLINK_ReadMemEx(0x200001A0, 0x0004 Bytes, ..., AccessWidth = 33554432)Mis-aligned memory write: Address: 0x200001A0, NumBytes: 4, Alignment: 2 (Halfword-aligned)
  ***** Mis-aligned memory write: Address: 0x200001A0, NumBytes: 4, Alignment: 2 (Halfword-aligned) -- CPU_ReadMem(4 bytes @ 0x200001A0) -- Data:  00 00 00 00  returns 0x04 (0002ms, 0227ms total)
T0C2C 001:158 JLINK_ReadMemEx(0x08000340, 0x0002 Bytes, ..., AccessWidth = 33554432)Mis-aligned memory write: Address: 0x08000340, NumBytes: 2, Alignment: 2 (Halfword-aligned)
  ***** Mis-aligned memory write: Address: 0x08000340, NumBytes: 2, Alignment: 2 (Halfword-aligned) -- CPU_ReadMem(2 bytes @ 0x08000340) -- Data:  0A 48  returns 0x02 (0002ms, 0229ms total)
T0C2C 001:160 JLINK_SetBPEx(Addr = 0x0800F688, Type = 0xFFFFFFF2)  returns 0x00000001 (0000ms, 0229ms total)
T0C2C 001:160 JLINK_SetBPEx(Addr = 0x08011982, Type = 0xFFFFFFF2)  returns 0x00000002 (0000ms, 0229ms total)
T0C2C 001:160 JLINK_Go() -- CPU_WriteMem(4 bytes @ 0xE0002008) -- CPU_WriteMem(4 bytes @ 0xE000200C) -- CPU_WriteMem(4 bytes @ 0xE0002010) -- CPU_WriteMem(4 bytes @ 0xE0002014) -- CPU_WriteMem(4 bytes @ 0xE0002018) -- CPU_WriteMem(4 bytes @ 0xE000201C) (0011ms, 0240ms total)
T0C2C 001:271 JLINK_IsHalted()  returns FALSE (0001ms, 0241ms total)
T0C2C 001:372 JLINK_IsHalted()  returns FALSE (0001ms, 0241ms total)
T0C2C 001:473 JLINK_IsHalted()  returns TRUE (0003ms, 0243ms total)
T0C2C 001:476 JLINK_Halt()  returns 0x00 (0000ms, 0240ms total)
T0C2C 001:476 JLINK_IsHalted()  returns TRUE (0000ms, 0240ms total)
T0C2C 001:476 JLINK_IsHalted()  returns TRUE (0000ms, 0240ms total)
T0C2C 001:476 JLINK_IsHalted()  returns TRUE (0000ms, 0240ms total)
T0C2C 001:476 JLINK_ReadReg(R15 (PC))  returns 0x0800F688 (0000ms, 0240ms total)
T0C2C 001:476 JLINK_ReadReg(XPSR)  returns 0x61000000 (0000ms, 0240ms total)
T0C2C 001:476 JLINK_ClrBPEx(BPHandle = 0x00000001)  returns 0x00 (0001ms, 0241ms total)
T0C2C 001:477 JLINK_ClrBPEx(BPHandle = 0x00000002)  returns 0x00 (0000ms, 0241ms total)
T0C2C 001:477 JLINK_ReadMemU32(0xE000ED30, 0x0001 Items, ...) -- CPU_ReadMem(4 bytes @ 0xE000ED30) -- Data:  02 00 00 00  returns 0x01 (0001ms, 0242ms total)
T0C2C 001:478 JLINK_ReadMemU32(0xE0001028, 0x0001 Items, ...) -- CPU_ReadMem(4 bytes @ 0xE0001028) -- Data:  00 00 00 00  returns 0x01 (0001ms, 0243ms total)
T0C2C 001:479 JLINK_ReadMemU32(0xE0001038, 0x0001 Items, ...) -- CPU_ReadMem(4 bytes @ 0xE0001038) -- Data:  00 02 00 00  returns 0x01 (0001ms, 0244ms total)
T0C2C 001:480 JLINK_ReadMemU32(0xE0001048, 0x0001 Items, ...) -- CPU_ReadMem(4 bytes @ 0xE0001048) -- Data:  00 00 00 00  returns 0x01 (0001ms, 0245ms total)
T0C2C 001:481 JLINK_ReadMemU32(0xE0001058, 0x0001 Items, ...) -- CPU_ReadMem(4 bytes @ 0xE0001058) -- Data:  00 00 00 00  returns 0x01 (0001ms, 0246ms total)
T0C2C 001:482 JLINK_ReadReg(R0)  returns 0x200051E8 (0000ms, 0246ms total)
T0C2C 001:482 JLINK_ReadReg(R1)  returns 0x200053E8 (0000ms, 0246ms total)
T0C2C 001:482 JLINK_ReadReg(R2)  returns 0x200053E8 (0000ms, 0246ms total)
T0C2C 001:482 JLINK_ReadReg(R3)  returns 0x200053E8 (0001ms, 0247ms total)
T0C2C 001:483 JLINK_ReadReg(R4)  returns 0x00000000 (0000ms, 0247ms total)
T0C2C 001:483 JLINK_ReadReg(R5)  returns 0x20005184 (0000ms, 0247ms total)
T0C2C 001:483 JLINK_ReadReg(R6)  returns 0x00000000 (0000ms, 0247ms total)
T0C2C 001:483 JLINK_ReadReg(R7)  returns 0x00000000 (0000ms, 0247ms total)
T0C2C 001:483 JLINK_ReadReg(R8)  returns 0x00000000 (0000ms, 0247ms total)
T0C2C 001:483 JLINK_ReadReg(R9)  returns 0x00000000 (0000ms, 0247ms total)
T0C2C 001:483 JLINK_ReadReg(R10)  returns 0x0801A1EC (0000ms, 0247ms total)
T0C2C 001:483 JLINK_ReadReg(R11)  returns 0x00000000 (0000ms, 0247ms total)
T0C2C 001:483 JLINK_ReadReg(R12)  returns 0x200051C4 (0000ms, 0247ms total)
T0C2C 001:483 JLINK_ReadReg(R13 (SP))  returns 0x200078E8 (0000ms, 0247ms total)
T0C2C 001:483 JLINK_ReadReg(R14)  returns 0x08000331 (0000ms, 0247ms total)
T0C2C 001:483 JLINK_ReadReg(R15 (PC))  returns 0x0800F688 (0000ms, 0247ms total)
T0C2C 001:483 JLINK_ReadReg(XPSR)  returns 0x61000000 (0000ms, 0247ms total)
T0C2C 001:483 JLINK_ReadReg(MSP)  returns 0x200078E8 (0000ms, 0247ms total)
T0C2C 001:483 JLINK_ReadReg(PSP)  returns 0x00000000 (0000ms, 0247ms total)
T0C2C 001:483 JLINK_ReadReg(CFBP)  returns 0x04000000 (0000ms, 0247ms total)
T0C2C 001:483 JLINK_ReadReg(FPSCR)  returns 0x03000000 (0004ms, 0251ms total)
T0C2C 001:487 JLINK_ReadReg(FPS0)  returns 0x00000000 (0000ms, 0251ms total)
T0C2C 001:487 JLINK_ReadReg(FPS1)  returns 0x00000000 (0000ms, 0251ms total)
T0C2C 001:487 JLINK_ReadReg(FPS2)  returns 0x00000000 (0000ms, 0251ms total)
T0C2C 001:487 JLINK_ReadReg(FPS3)  returns 0x00000000 (0000ms, 0251ms total)
T0C2C 001:487 JLINK_ReadReg(FPS4)  returns 0x00000000 (0000ms, 0251ms total)
T0C2C 001:487 JLINK_ReadReg(FPS5)  returns 0x00000000 (0000ms, 0251ms total)
T0C2C 001:487 JLINK_ReadReg(FPS6)  returns 0x00000000 (0000ms, 0251ms total)
T0C2C 001:487 JLINK_ReadReg(FPS7)  returns 0x00000000 (0000ms, 0251ms total)
T0C2C 001:487 JLINK_ReadReg(FPS8)  returns 0x00000000 (0000ms, 0251ms total)
T0C2C 001:487 JLINK_ReadReg(FPS9)  returns 0x00000000 (0000ms, 0251ms total)
T0C2C 001:487 JLINK_ReadReg(FPS10)  returns 0x00000000 (0000ms, 0251ms total)
T0C2C 001:487 JLINK_ReadReg(FPS11)  returns 0x00000000 (0000ms, 0251ms total)
T0C2C 001:487 JLINK_ReadReg(FPS12)  returns 0x00000000 (0000ms, 0251ms total)
T0C2C 001:487 JLINK_ReadReg(FPS13)  returns 0x00000000 (0000ms, 0251ms total)
T0C2C 001:487 JLINK_ReadReg(FPS14)  returns 0x00000000 (0000ms, 0251ms total)
T0C2C 001:487 JLINK_ReadReg(FPS15)  returns 0x00000000 (0000ms, 0251ms total)
T0C2C 001:487 JLINK_ReadReg(FPS16)  returns 0x00000000 (0000ms, 0251ms total)
T0C2C 001:487 JLINK_ReadReg(FPS17)  returns 0x00000000 (0000ms, 0251ms total)
T0C2C 001:487 JLINK_ReadReg(FPS18)  returns 0x00000000 (0000ms, 0251ms total)
T0C2C 001:487 JLINK_ReadReg(FPS19)  returns 0x00000000 (0000ms, 0251ms total)
T0C2C 001:487 JLINK_ReadReg(FPS20)  returns 0x00000000 (0000ms, 0251ms total)
T0C2C 001:487 JLINK_ReadReg(FPS21)  returns 0x00000000 (0000ms, 0251ms total)
T0C2C 001:488 JLINK_ReadReg(FPS22)  returns 0x00000000 (0000ms, 0251ms total)
T0C2C 001:488 JLINK_ReadReg(FPS23)  returns 0x00000000 (0000ms, 0251ms total)
T0C2C 001:488 JLINK_ReadReg(FPS24)  returns 0x00000000 (0000ms, 0251ms total)
T0C2C 001:488 JLINK_ReadReg(FPS25)  returns 0x00000000 (0000ms, 0251ms total)
T0C2C 001:488 JLINK_ReadReg(FPS26)  returns 0x00000000 (0000ms, 0251ms total)
T0C2C 001:488 JLINK_ReadReg(FPS27)  returns 0x00000000 (0000ms, 0251ms total)
T0C2C 001:488 JLINK_ReadReg(FPS28)  returns 0x00000000 (0000ms, 0251ms total)
T0C2C 001:488 JLINK_ReadReg(FPS29)  returns 0x00000000 (0000ms, 0251ms total)
T0C2C 001:488 JLINK_ReadReg(FPS30)  returns 0x00000000 (0000ms, 0251ms total)
T0C2C 001:488 JLINK_ReadReg(FPS31)  returns 0x00000000 (0000ms, 0251ms total)
T0A40 001:491 JLINK_ReadMemEx(0x20003B4C, 0x0004 Bytes, ..., AccessWidth = 33554432)Mis-aligned memory write: Address: 0x20003B4C, NumBytes: 4, Alignment: 2 (Halfword-aligned)
  ***** Mis-aligned memory write: Address: 0x20003B4C, NumBytes: 4, Alignment: 2 (Halfword-aligned) -- CPU_ReadMem(4 bytes @ 0x20003B4C) -- Data:  00 00 00 00  returns 0x04 (0002ms, 0253ms total)
T0A40 001:495 JLINK_ReadMemEx(0x2000002C, 0x0004 Bytes, ..., AccessWidth = 33554432)Mis-aligned memory write: Address: 0x2000002C, NumBytes: 4, Alignment: 2 (Halfword-aligned)
  ***** Mis-aligned memory write: Address: 0x2000002C, NumBytes: 4, Alignment: 2 (Halfword-aligned) -- CPU_ReadMem(4 bytes @ 0x2000002C) -- Data:  00 00 00 00  returns 0x04 (0002ms, 0255ms total)
T0A40 001:497 JLINK_ReadMemEx(0x20000028, 0x0004 Bytes, ..., AccessWidth = 33554432)Mis-aligned memory write: Address: 0x20000028, NumBytes: 4, Alignment: 2 (Halfword-aligned)
  ***** Mis-aligned memory write: Address: 0x20000028, NumBytes: 4, Alignment: 2 (Halfword-aligned) -- CPU_ReadMem(4 bytes @ 0x20000028) -- Data:  00 00 00 00  returns 0x04 (0001ms, 0256ms total)
T0A40 001:499 JLINK_ReadMemEx(0x20000240, 0x0004 Bytes, ..., AccessWidth = 33554432)Mis-aligned memory write: Address: 0x20000240, NumBytes: 4, Alignment: 2 (Halfword-aligned)
  ***** Mis-aligned memory write: Address: 0x20000240, NumBytes: 4, Alignment: 2 (Halfword-aligned) -- CPU_ReadMem(4 bytes @ 0x20000240) -- Data:  00 00 00 00  returns 0x04 (0002ms, 0258ms total)
T0A40 001:508 JLINK_ReadMemEx(0x20002EA0, 0x0004 Bytes, ..., AccessWidth = 33554432)Mis-aligned memory write: Address: 0x20002EA0, NumBytes: 4, Alignment: 2 (Halfword-aligned)
  ***** Mis-aligned memory write: Address: 0x20002EA0, NumBytes: 4, Alignment: 2 (Halfword-aligned) -- CPU_ReadMem(4 bytes @ 0x20002EA0) -- Data:  00 00 00 00  returns 0x04 (0002ms, 0260ms total)
T0A40 001:510 JLINK_ReadMemEx(0x20002E9C, 0x0004 Bytes, ..., AccessWidth = 33554432)Mis-aligned memory write: Address: 0x20002E9C, NumBytes: 4, Alignment: 2 (Halfword-aligned)
  ***** Mis-aligned memory write: Address: 0x20002E9C, NumBytes: 4, Alignment: 2 (Halfword-aligned) -- CPU_ReadMem(4 bytes @ 0x20002E9C) -- Data:  00 00 00 00  returns 0x04 (0001ms, 0261ms total)
T0A40 001:514 JLINK_ReadMemEx(0x200001A0, 0x0004 Bytes, ..., AccessWidth = 33554432)Mis-aligned memory write: Address: 0x200001A0, NumBytes: 4, Alignment: 2 (Halfword-aligned)
  ***** Mis-aligned memory write: Address: 0x200001A0, NumBytes: 4, Alignment: 2 (Halfword-aligned) -- CPU_ReadMem(4 bytes @ 0x200001A0) -- Data:  00 00 00 00  returns 0x04 (0002ms, 0263ms total)
T0C2C 002:696 JLINK_ReadMemEx(0x0800F688, 0x0002 Bytes, ..., AccessWidth = 33554432)Mis-aligned memory write: Address: 0x0800F688, NumBytes: 2, Alignment: 2 (Halfword-aligned)
  ***** Mis-aligned memory write: Address: 0x0800F688, NumBytes: 2, Alignment: 2 (Halfword-aligned) -- CPU_ReadMem(64 bytes @ 0x0800F680) -- Updating DA cache (64 bytes @ 0x0800F680) -- Read from DA cache (2 bytes @ 0x0800F688) -- Data:  10 B5  returns 0x02 (0007ms, 0270ms total)
T0C2C 002:703 JLINK_SetBPEx(Addr = 0x08011982, Type = 0xFFFFFFF2)  returns 0x00000003 (0000ms, 0270ms total)
T0C2C 002:703 JLINK_Go() -- CPU_WriteMem(4 bytes @ 0xE0002008) -- CPU_WriteMem(4 bytes @ 0xE000200C) (0006ms, 0276ms total)
T0C2C 002:809 JLINK_IsHalted()  returns FALSE (0001ms, 0277ms total)
T0C2C 002:910 JLINK_IsHalted()  returns FALSE (0001ms, 0277ms total)
T0C2C 003:011 JLINK_IsHalted()  returns FALSE (0001ms, 0277ms total)
T0C2C 003:112 JLINK_IsHalted()  returns FALSE (0001ms, 0277ms total)
T0C2C 003:213 JLINK_IsHalted()  returns FALSE (0001ms, 0277ms total)
T0C2C 003:314 JLINK_ReadMemU32(0xE0001004, 0x0001 Items, ...) -- CPU is running -- CPU_ReadMem(4 bytes @ 0xE0001004) -- Data:  AB 08 C6 06  returns 0x01 (0001ms, 0277ms total)
T0A40 003:315 JLINK_ReadMemEx(0x20003B4C, 0x0004 Bytes, ..., AccessWidth = 33554432)Mis-aligned memory write: Address: 0x20003B4C, NumBytes: 4, Alignment: 2 (Halfword-aligned)
  ***** Mis-aligned memory write: Address: 0x20003B4C, NumBytes: 4, Alignment: 2 (Halfword-aligned) -- CPU is running -- CPU_ReadMem(4 bytes @ 0x20003B4C) -- Data:  00 00 00 00  returns 0x04 (0002ms, 0279ms total)
T0A40 003:319 JLINK_ReadMemEx(0x2000002C, 0x0004 Bytes, ..., AccessWidth = 33554432)Mis-aligned memory write: Address: 0x2000002C, NumBytes: 4, Alignment: 2 (Halfword-aligned)
  ***** Mis-aligned memory write: Address: 0x2000002C, NumBytes: 4, Alignment: 2 (Halfword-aligned) -- CPU is running -- CPU_ReadMem(4 bytes @ 0x2000002C) -- Data:  00 00 00 00  returns 0x04 (0002ms, 0281ms total)
T0A40 003:321 JLINK_ReadMemEx(0x20000028, 0x0004 Bytes, ..., AccessWidth = 33554432)Mis-aligned memory write: Address: 0x20000028, NumBytes: 4, Alignment: 2 (Halfword-aligned)
  ***** Mis-aligned memory write: Address: 0x20000028, NumBytes: 4, Alignment: 2 (Halfword-aligned) -- CPU is running -- CPU_ReadMem(4 bytes @ 0x20000028) -- Data:  00 00 00 00  returns 0x04 (0001ms, 0282ms total)
T0A40 003:323 JLINK_ReadMemEx(0x20000240, 0x0004 Bytes, ..., AccessWidth = 33554432)Mis-aligned memory write: Address: 0x20000240, NumBytes: 4, Alignment: 2 (Halfword-aligned)
  ***** Mis-aligned memory write: Address: 0x20000240, NumBytes: 4, Alignment: 2 (Halfword-aligned) -- CPU is running -- CPU_ReadMem(4 bytes @ 0x20000240) -- Data:  00 00 00 00  returns 0x04 (0002ms, 0284ms total)
T0A40 003:331 JLINK_ReadMemEx(0x20002EA0, 0x0004 Bytes, ..., AccessWidth = 33554432)Mis-aligned memory write: Address: 0x20002EA0, NumBytes: 4, Alignment: 2 (Halfword-aligned)
  ***** Mis-aligned memory write: Address: 0x20002EA0, NumBytes: 4, Alignment: 2 (Halfword-aligned) -- CPU is running -- CPU_ReadMem(4 bytes @ 0x20002EA0) -- Data:  00 00 00 00  returns 0x04 (0002ms, 0286ms total)
T0A40 003:333 JLINK_ReadMemEx(0x20002E9C, 0x0004 Bytes, ..., AccessWidth = 33554432)Mis-aligned memory write: Address: 0x20002E9C, NumBytes: 4, Alignment: 2 (Halfword-aligned)
  ***** Mis-aligned memory write: Address: 0x20002E9C, NumBytes: 4, Alignment: 2 (Halfword-aligned) -- CPU is running -- CPU_ReadMem(4 bytes @ 0x20002E9C) -- Data:  00 00 00 00  returns 0x04 (0001ms, 0287ms total)
T0A40 003:338 JLINK_ReadMemEx(0x200001A0, 0x0004 Bytes, ..., AccessWidth = 33554432)Mis-aligned memory write: Address: 0x200001A0, NumBytes: 4, Alignment: 2 (Halfword-aligned)
  ***** Mis-aligned memory write: Address: 0x200001A0, NumBytes: 4, Alignment: 2 (Halfword-aligned) -- CPU is running -- CPU_ReadMem(4 bytes @ 0x200001A0) -- Data:  00 00 00 00  returns 0x04 (0002ms, 0289ms total)
T0C2C 003:340 JLINK_IsHalted()  returns FALSE (0001ms, 0290ms total)
T0C2C 003:441 JLINK_IsHalted()  returns FALSE (0001ms, 0290ms total)
T0C2C 003:542 JLINK_IsHalted()  returns FALSE (0001ms, 0290ms total)
T0C2C 003:643 JLINK_IsHalted()  returns FALSE (0001ms, 0290ms total)
T0C2C 003:744 JLINK_IsHalted()  returns FALSE (0002ms, 0291ms total)
T0C2C 003:846 JLINK_ReadMemU32(0xE0001004, 0x0001 Items, ...) -- CPU is running -- CPU_ReadMem(4 bytes @ 0xE0001004) -- Data:  A0 C5 7B 0C  returns 0x01 (0001ms, 0290ms total)
T0A40 003:847 JLINK_ReadMemEx(0x20003B4C, 0x0004 Bytes, ..., AccessWidth = 33554432)Mis-aligned memory write: Address: 0x20003B4C, NumBytes: 4, Alignment: 2 (Halfword-aligned)
  ***** Mis-aligned memory write: Address: 0x20003B4C, NumBytes: 4, Alignment: 2 (Halfword-aligned) -- CPU is running -- CPU_ReadMem(4 bytes @ 0x20003B4C) -- Data:  24 DC 25 40  returns 0x04 (0002ms, 0292ms total)
T0A40 003:853 JLINK_ReadMemEx(0x2000002C, 0x0004 Bytes, ..., AccessWidth = 33554432)Mis-aligned memory write: Address: 0x2000002C, NumBytes: 4, Alignment: 2 (Halfword-aligned)
  ***** Mis-aligned memory write: Address: 0x2000002C, NumBytes: 4, Alignment: 2 (Halfword-aligned) -- CPU is running -- CPU_ReadMem(4 bytes @ 0x2000002C) -- Data:  00 00 00 00  returns 0x04 (0001ms, 0293ms total)
T0A40 003:854 JLINK_ReadMemEx(0x20000028, 0x0004 Bytes, ..., AccessWidth = 33554432)Mis-aligned memory write: Address: 0x20000028, NumBytes: 4, Alignment: 2 (Halfword-aligned)
  ***** Mis-aligned memory write: Address: 0x20000028, NumBytes: 4, Alignment: 2 (Halfword-aligned) -- CPU is running -- CPU_ReadMem(4 bytes @ 0x20000028) -- Data:  00 00 00 00  returns 0x04 (0001ms, 0294ms total)
T0A40 003:857 JLINK_ReadMemEx(0x20000240, 0x0004 Bytes, ..., AccessWidth = 33554432)Mis-aligned memory write: Address: 0x20000240, NumBytes: 4, Alignment: 2 (Halfword-aligned)
  ***** Mis-aligned memory write: Address: 0x20000240, NumBytes: 4, Alignment: 2 (Halfword-aligned) -- CPU is running -- CPU_ReadMem(4 bytes @ 0x20000240) -- Data:  00 00 00 00  returns 0x04 (0002ms, 0296ms total)
T0A40 003:865 JLINK_ReadMemEx(0x20002EA0, 0x0004 Bytes, ..., AccessWidth = 33554432)Mis-aligned memory write: Address: 0x20002EA0, NumBytes: 4, Alignment: 2 (Halfword-aligned)
  ***** Mis-aligned memory write: Address: 0x20002EA0, NumBytes: 4, Alignment: 2 (Halfword-aligned) -- CPU is running -- CPU_ReadMem(4 bytes @ 0x20002EA0) -- Data:  00 00 00 00  returns 0x04 (0002ms, 0298ms total)
T0A40 003:867 JLINK_ReadMemEx(0x20002E9C, 0x0004 Bytes, ..., AccessWidth = 33554432)Mis-aligned memory write: Address: 0x20002E9C, NumBytes: 4, Alignment: 2 (Halfword-aligned)
  ***** Mis-aligned memory write: Address: 0x20002E9C, NumBytes: 4, Alignment: 2 (Halfword-aligned) -- CPU is running -- CPU_ReadMem(4 bytes @ 0x20002E9C) -- Data:  00 00 00 00  returns 0x04 (0001ms, 0299ms total)
T0A40 003:871 JLINK_ReadMemEx(0x200001A0, 0x0004 Bytes, ..., AccessWidth = 33554432)Mis-aligned memory write: Address: 0x200001A0, NumBytes: 4, Alignment: 2 (Halfword-aligned)
  ***** Mis-aligned memory write: Address: 0x200001A0, NumBytes: 4, Alignment: 2 (Halfword-aligned) -- CPU is running -- CPU_ReadMem(4 bytes @ 0x200001A0) -- Data:  00 00 00 00  returns 0x04 (0002ms, 0301ms total)
T0C2C 003:873 JLINK_IsHalted()  returns FALSE (0001ms, 0302ms total)
T0C2C 003:974 JLINK_IsHalted()  returns FALSE (0001ms, 0302ms total)
T0C2C 004:075 JLINK_IsHalted()  returns FALSE (0001ms, 0302ms total)
T0C2C 004:176 JLINK_IsHalted()  returns FALSE (0001ms, 0302ms total)
T0C2C 004:277 JLINK_IsHalted()  returns FALSE (0001ms, 0302ms total)
T0C2C 004:378 JLINK_ReadMemU32(0xE0001004, 0x0001 Items, ...) -- CPU is running -- CPU_ReadMem(4 bytes @ 0xE0001004) -- Data:  F0 07 31 12  returns 0x01 (0001ms, 0302ms total)
T0A40 004:379 JLINK_ReadMemEx(0x20003B4C, 0x0004 Bytes, ..., AccessWidth = 33554432)Mis-aligned memory write: Address: 0x20003B4C, NumBytes: 4, Alignment: 2 (Halfword-aligned)
  ***** Mis-aligned memory write: Address: 0x20003B4C, NumBytes: 4, Alignment: 2 (Halfword-aligned) -- CPU is running -- CPU_ReadMem(4 bytes @ 0x20003B4C) -- Data:  A9 31 24 40  returns 0x04 (0002ms, 0304ms total)
T0A40 004:386 JLINK_ReadMemEx(0x2000002C, 0x0004 Bytes, ..., AccessWidth = 33554432)Mis-aligned memory write: Address: 0x2000002C, NumBytes: 4, Alignment: 2 (Halfword-aligned)
  ***** Mis-aligned memory write: Address: 0x2000002C, NumBytes: 4, Alignment: 2 (Halfword-aligned) -- CPU is running -- CPU_ReadMem(4 bytes @ 0x2000002C) -- Data:  00 00 00 00  returns 0x04 (0001ms, 0305ms total)
T0A40 004:387 JLINK_ReadMemEx(0x20000028, 0x0004 Bytes, ..., AccessWidth = 33554432)Mis-aligned memory write: Address: 0x20000028, NumBytes: 4, Alignment: 2 (Halfword-aligned)
  ***** Mis-aligned memory write: Address: 0x20000028, NumBytes: 4, Alignment: 2 (Halfword-aligned) -- CPU is running -- CPU_ReadMem(4 bytes @ 0x20000028) -- Data:  00 00 00 00  returns 0x04 (0001ms, 0306ms total)
T0A40 004:390 JLINK_ReadMemEx(0x20000240, 0x0004 Bytes, ..., AccessWidth = 33554432)Mis-aligned memory write: Address: 0x20000240, NumBytes: 4, Alignment: 2 (Halfword-aligned)
  ***** Mis-aligned memory write: Address: 0x20000240, NumBytes: 4, Alignment: 2 (Halfword-aligned) -- CPU is running -- CPU_ReadMem(4 bytes @ 0x20000240) -- Data:  00 00 00 00  returns 0x04 (0002ms, 0308ms total)
T0A40 004:399 JLINK_ReadMemEx(0x20002EA0, 0x0004 Bytes, ..., AccessWidth = 33554432)Mis-aligned memory write: Address: 0x20002EA0, NumBytes: 4, Alignment: 2 (Halfword-aligned)
  ***** Mis-aligned memory write: Address: 0x20002EA0, NumBytes: 4, Alignment: 2 (Halfword-aligned) -- CPU is running -- CPU_ReadMem(4 bytes @ 0x20002EA0) -- Data:  00 00 00 00  returns 0x04 (0002ms, 0310ms total)
T0A40 004:401 JLINK_ReadMemEx(0x20002E9C, 0x0004 Bytes, ..., AccessWidth = 33554432)Mis-aligned memory write: Address: 0x20002E9C, NumBytes: 4, Alignment: 2 (Halfword-aligned)
  ***** Mis-aligned memory write: Address: 0x20002E9C, NumBytes: 4, Alignment: 2 (Halfword-aligned) -- CPU is running -- CPU_ReadMem(4 bytes @ 0x20002E9C) -- Data:  00 00 00 00  returns 0x04 (0001ms, 0311ms total)
T0A40 004:405 JLINK_ReadMemEx(0x200001A0, 0x0004 Bytes, ..., AccessWidth = 33554432)Mis-aligned memory write: Address: 0x200001A0, NumBytes: 4, Alignment: 2 (Halfword-aligned)
  ***** Mis-aligned memory write: Address: 0x200001A0, NumBytes: 4, Alignment: 2 (Halfword-aligned) -- CPU is running -- CPU_ReadMem(4 bytes @ 0x200001A0) -- Data:  00 00 00 00  returns 0x04 (0002ms, 0313ms total)
T0C2C 004:407 JLINK_IsHalted()  returns FALSE (0001ms, 0314ms total)
T0C2C 004:508 JLINK_IsHalted()  returns FALSE (0001ms, 0314ms total)
T0C2C 004:609 JLINK_IsHalted()  returns FALSE (0001ms, 0314ms total)
T0C2C 004:710 JLINK_IsHalted()  returns FALSE (0001ms, 0314ms total)
T0C2C 004:811 JLINK_IsHalted()  returns FALSE (0002ms, 0315ms total)
T0C2C 004:913 JLINK_ReadMemU32(0xE0001004, 0x0001 Items, ...) -- CPU is running -- CPU_ReadMem(4 bytes @ 0xE0001004) -- Data:  D0 0F EF 17  returns 0x01 (0001ms, 0314ms total)
T0A40 004:914 JLINK_ReadMemEx(0x20003B4C, 0x0004 Bytes, ..., AccessWidth = 33554432)Mis-aligned memory write: Address: 0x20003B4C, NumBytes: 4, Alignment: 2 (Halfword-aligned)
  ***** Mis-aligned memory write: Address: 0x20003B4C, NumBytes: 4, Alignment: 2 (Halfword-aligned) -- CPU is running -- CPU_ReadMem(4 bytes @ 0x20003B4C) -- Data:  CC 1C 24 40  returns 0x04 (0002ms, 0316ms total)
T0A40 004:921 JLINK_ReadMemEx(0x2000002C, 0x0004 Bytes, ..., AccessWidth = 33554432)Mis-aligned memory write: Address: 0x2000002C, NumBytes: 4, Alignment: 2 (Halfword-aligned)
  ***** Mis-aligned memory write: Address: 0x2000002C, NumBytes: 4, Alignment: 2 (Halfword-aligned) -- CPU is running -- CPU_ReadMem(4 bytes @ 0x2000002C) -- Data:  00 00 00 00  returns 0x04 (0001ms, 0317ms total)
T0A40 004:922 JLINK_ReadMemEx(0x20000028, 0x0004 Bytes, ..., AccessWidth = 33554432)Mis-aligned memory write: Address: 0x20000028, NumBytes: 4, Alignment: 2 (Halfword-aligned)
  ***** Mis-aligned memory write: Address: 0x20000028, NumBytes: 4, Alignment: 2 (Halfword-aligned) -- CPU is running -- CPU_ReadMem(4 bytes @ 0x20000028) -- Data:  00 00 00 00  returns 0x04 (0001ms, 0318ms total)
T0A40 004:925 JLINK_ReadMemEx(0x20000240, 0x0004 Bytes, ..., AccessWidth = 33554432)Mis-aligned memory write: Address: 0x20000240, NumBytes: 4, Alignment: 2 (Halfword-aligned)
  ***** Mis-aligned memory write: Address: 0x20000240, NumBytes: 4, Alignment: 2 (Halfword-aligned) -- CPU is running -- CPU_ReadMem(4 bytes @ 0x20000240) -- Data:  00 00 00 00  returns 0x04 (0002ms, 0320ms total)
T0A40 004:933 JLINK_ReadMemEx(0x20002EA0, 0x0004 Bytes, ..., AccessWidth = 33554432)Mis-aligned memory write: Address: 0x20002EA0, NumBytes: 4, Alignment: 2 (Halfword-aligned)
  ***** Mis-aligned memory write: Address: 0x20002EA0, NumBytes: 4, Alignment: 2 (Halfword-aligned) -- CPU is running -- CPU_ReadMem(4 bytes @ 0x20002EA0) -- Data:  00 00 00 00  returns 0x04 (0002ms, 0322ms total)
T0A40 004:935 JLINK_ReadMemEx(0x20002E9C, 0x0004 Bytes, ..., AccessWidth = 33554432)Mis-aligned memory write: Address: 0x20002E9C, NumBytes: 4, Alignment: 2 (Halfword-aligned)
  ***** Mis-aligned memory write: Address: 0x20002E9C, NumBytes: 4, Alignment: 2 (Halfword-aligned) -- CPU is running -- CPU_ReadMem(4 bytes @ 0x20002E9C) -- Data:  00 00 00 00  returns 0x04 (0001ms, 0323ms total)
T0A40 004:939 JLINK_ReadMemEx(0x200001A0, 0x0004 Bytes, ..., AccessWidth = 33554432)Mis-aligned memory write: Address: 0x200001A0, NumBytes: 4, Alignment: 2 (Halfword-aligned)
  ***** Mis-aligned memory write: Address: 0x200001A0, NumBytes: 4, Alignment: 2 (Halfword-aligned) -- CPU is running -- CPU_ReadMem(4 bytes @ 0x200001A0) -- Data:  00 00 00 00  returns 0x04 (0002ms, 0325ms total)
T0C2C 004:941 JLINK_IsHalted()  returns FALSE (0001ms, 0326ms total)
T0C2C 005:042 JLINK_IsHalted()  returns FALSE (0001ms, 0326ms total)
T0C2C 005:143 JLINK_IsHalted()  returns FALSE (0003ms, 0328ms total)
T0C2C 005:246 JLINK_IsHalted()  returns FALSE (0001ms, 0326ms total)
T0C2C 005:347 JLINK_IsHalted()  returns FALSE (0001ms, 0326ms total)
T0C2C 005:448 JLINK_ReadMemU32(0xE0001004, 0x0001 Items, ...) -- CPU is running -- CPU_ReadMem(4 bytes @ 0xE0001004) -- Data:  F0 7B CA 1C  returns 0x01 (0001ms, 0326ms total)
T0A40 005:449 JLINK_ReadMemEx(0x20003B4C, 0x0004 Bytes, ..., AccessWidth = 33554432)Mis-aligned memory write: Address: 0x20003B4C, NumBytes: 4, Alignment: 2 (Halfword-aligned)
  ***** Mis-aligned memory write: Address: 0x20003B4C, NumBytes: 4, Alignment: 2 (Halfword-aligned) -- CPU is running -- CPU_ReadMem(4 bytes @ 0x20003B4C) -- Data:  00 00 2E 38  returns 0x04 (0002ms, 0328ms total)
T0A40 005:456 JLINK_ReadMemEx(0x2000002C, 0x0004 Bytes, ..., AccessWidth = 33554432)Mis-aligned memory write: Address: 0x2000002C, NumBytes: 4, Alignment: 2 (Halfword-aligned)
  ***** Mis-aligned memory write: Address: 0x2000002C, NumBytes: 4, Alignment: 2 (Halfword-aligned) -- CPU is running -- CPU_ReadMem(4 bytes @ 0x2000002C) -- Data:  00 00 00 00  returns 0x04 (0001ms, 0329ms total)
T0A40 005:458 JLINK_ReadMemEx(0x20000028, 0x0004 Bytes, ..., AccessWidth = 33554432)Mis-aligned memory write: Address: 0x20000028, NumBytes: 4, Alignment: 2 (Halfword-aligned)
  ***** Mis-aligned memory write: Address: 0x20000028, NumBytes: 4, Alignment: 2 (Halfword-aligned) -- CPU is running -- CPU_ReadMem(4 bytes @ 0x20000028) -- Data:  00 00 00 00  returns 0x04 (0001ms, 0331ms total)
T0A40 005:460 JLINK_ReadMemEx(0x20000240, 0x0004 Bytes, ..., AccessWidth = 33554432)Mis-aligned memory write: Address: 0x20000240, NumBytes: 4, Alignment: 2 (Halfword-aligned)
  ***** Mis-aligned memory write: Address: 0x20000240, NumBytes: 4, Alignment: 2 (Halfword-aligned) -- CPU is running -- CPU_ReadMem(4 bytes @ 0x20000240) -- Data:  CD CC 4C 3D  returns 0x04 (0002ms, 0333ms total)
T0A40 005:469 JLINK_ReadMemEx(0x20002EA0, 0x0004 Bytes, ..., AccessWidth = 33554432)Mis-aligned memory write: Address: 0x20002EA0, NumBytes: 4, Alignment: 2 (Halfword-aligned)
  ***** Mis-aligned memory write: Address: 0x20002EA0, NumBytes: 4, Alignment: 2 (Halfword-aligned) -- CPU is running -- CPU_ReadMem(4 bytes @ 0x20002EA0) -- Data:  00 00 00 00  returns 0x04 (0001ms, 0334ms total)
T0A40 005:471 JLINK_ReadMemEx(0x20002E9C, 0x0004 Bytes, ..., AccessWidth = 33554432)Mis-aligned memory write: Address: 0x20002E9C, NumBytes: 4, Alignment: 2 (Halfword-aligned)
  ***** Mis-aligned memory write: Address: 0x20002E9C, NumBytes: 4, Alignment: 2 (Halfword-aligned) -- CPU is running -- CPU_ReadMem(4 bytes @ 0x20002E9C) -- Data:  00 00 00 00  returns 0x04 (0000ms, 0334ms total)
T0A40 005:475 JLINK_ReadMemEx(0x200001A0, 0x0004 Bytes, ..., AccessWidth = 33554432)Mis-aligned memory write: Address: 0x200001A0, NumBytes: 4, Alignment: 2 (Halfword-aligned)
  ***** Mis-aligned memory write: Address: 0x200001A0, NumBytes: 4, Alignment: 2 (Halfword-aligned) -- CPU is running -- CPU_ReadMem(4 bytes @ 0x200001A0) -- Data:  00 00 00 00  returns 0x04 (0002ms, 0336ms total)
T0C2C 005:477 JLINK_IsHalted()  returns TRUE (0003ms, 0339ms total)
T0C2C 005:480 JLINK_Halt()  returns 0x00 (0000ms, 0336ms total)
T0C2C 005:480 JLINK_IsHalted()  returns TRUE (0000ms, 0336ms total)
T0C2C 005:480 JLINK_IsHalted()  returns TRUE (0000ms, 0336ms total)
T0C2C 005:480 JLINK_IsHalted()  returns TRUE (0000ms, 0336ms total)
T0C2C 005:480 JLINK_ReadReg(R15 (PC))  returns 0x08011982 (0000ms, 0336ms total)
T0C2C 005:480 JLINK_ReadReg(XPSR)  returns 0x81000000 (0000ms, 0336ms total)
T0C2C 005:480 JLINK_ClrBPEx(BPHandle = 0x00000003)  returns 0x00 (0000ms, 0336ms total)
T0C2C 005:480 JLINK_ReadMemU32(0xE000ED30, 0x0001 Items, ...) -- CPU_ReadMem(4 bytes @ 0xE000ED30) -- Data:  02 00 00 00  returns 0x01 (0002ms, 0338ms total)
T0C2C 005:482 JLINK_ReadMemU32(0xE0001028, 0x0001 Items, ...) -- CPU_ReadMem(4 bytes @ 0xE0001028) -- Data:  00 00 00 00  returns 0x01 (0001ms, 0339ms total)
T0C2C 005:483 JLINK_ReadMemU32(0xE0001038, 0x0001 Items, ...) -- CPU_ReadMem(4 bytes @ 0xE0001038) -- Data:  00 02 00 00  returns 0x01 (0001ms, 0340ms total)
T0C2C 005:484 JLINK_ReadMemU32(0xE0001048, 0x0001 Items, ...) -- CPU_ReadMem(4 bytes @ 0xE0001048) -- Data:  00 00 00 00  returns 0x01 (0001ms, 0341ms total)
T0C2C 005:485 JLINK_ReadMemU32(0xE0001058, 0x0001 Items, ...) -- CPU_ReadMem(4 bytes @ 0xE0001058) -- Data:  00 00 00 00  returns 0x01 (0001ms, 0342ms total)
T0C2C 005:486 JLINK_ReadReg(R0)  returns 0x00000000 (0000ms, 0342ms total)
T0C2C 005:486 JLINK_ReadReg(R1)  returns 0x3DCCCCCD (0000ms, 0342ms total)
T0C2C 005:486 JLINK_ReadReg(R2)  returns 0xC8000000 (0000ms, 0342ms total)
T0C2C 005:486 JLINK_ReadReg(R3)  returns 0x00000000 (0000ms, 0342ms total)
T0C2C 005:486 JLINK_ReadReg(R4)  returns 0x20002D8C (0000ms, 0342ms total)
T0C2C 005:486 JLINK_ReadReg(R5)  returns 0x00000001 (0000ms, 0342ms total)
T0C2C 005:486 JLINK_ReadReg(R6)  returns 0x200001A0 (0000ms, 0342ms total)
T0C2C 005:486 JLINK_ReadReg(R7)  returns 0x3F800000 (0000ms, 0342ms total)
T0C2C 005:486 JLINK_ReadReg(R8)  returns 0x00000002 (0000ms, 0342ms total)
T0C2C 005:486 JLINK_ReadReg(R9)  returns 0xDEADBEEF (0000ms, 0342ms total)
T0C2C 005:486 JLINK_ReadReg(R10)  returns 0xDEADBEEF (0000ms, 0342ms total)
T0C2C 005:486 JLINK_ReadReg(R11)  returns 0xDEADBEEF (0001ms, 0343ms total)
T0C2C 005:487 JLINK_ReadReg(R12)  returns 0x47F00000 (0000ms, 0343ms total)
T0C2C 005:487 JLINK_ReadReg(R13 (SP))  returns 0x20002CD0 (0000ms, 0343ms total)
T0C2C 005:487 JLINK_ReadReg(R14)  returns 0x08011977 (0000ms, 0343ms total)
T0C2C 005:487 JLINK_ReadReg(R15 (PC))  returns 0x08011982 (0000ms, 0343ms total)
T0C2C 005:487 JLINK_ReadReg(XPSR)  returns 0x81000000 (0000ms, 0343ms total)
T0C2C 005:487 JLINK_ReadReg(MSP)  returns 0x200078C8 (0000ms, 0343ms total)
T0C2C 005:487 JLINK_ReadReg(PSP)  returns 0x20002CD0 (0000ms, 0343ms total)
T0C2C 005:487 JLINK_ReadReg(CFBP)  returns 0x06000000 (0000ms, 0343ms total)
T0C2C 005:487 JLINK_ReadReg(FPSCR)  returns 0x20000010 (0003ms, 0346ms total)
T0C2C 005:490 JLINK_ReadReg(FPS0)  returns 0x00000000 (0000ms, 0346ms total)
T0C2C 005:490 JLINK_ReadReg(FPS1)  returns 0x00000000 (0000ms, 0346ms total)
T0C2C 005:490 JLINK_ReadReg(FPS2)  returns 0x66666666 (0000ms, 0346ms total)
T0C2C 005:490 JLINK_ReadReg(FPS3)  returns 0x404CA666 (0000ms, 0346ms total)
T0C2C 005:490 JLINK_ReadReg(FPS4)  returns 0x3D99931B (0000ms, 0346ms total)
T0C2C 005:490 JLINK_ReadReg(FPS5)  returns 0x3F7FFF65 (0000ms, 0346ms total)
T0C2C 005:490 JLINK_ReadReg(FPS6)  returns 0xBAAACFFB (0001ms, 0347ms total)
T0C2C 005:491 JLINK_ReadReg(FPS7)  returns 0x3B602280 (0000ms, 0347ms total)
T0C2C 005:491 JLINK_ReadReg(FPS8)  returns 0x3B2AD0AD (0000ms, 0347ms total)
T0C2C 005:491 JLINK_ReadReg(FPS9)  returns 0x3F9ABCE0 (0000ms, 0347ms total)
T0C2C 005:491 JLINK_ReadReg(FPS10)  returns 0xB9CC8D80 (0000ms, 0347ms total)
T0C2C 005:491 JLINK_ReadReg(FPS11)  returns 0x00000000 (0000ms, 0347ms total)
T0C2C 005:491 JLINK_ReadReg(FPS12)  returns 0x00000000 (0000ms, 0347ms total)
T0C2C 005:491 JLINK_ReadReg(FPS13)  returns 0x00000000 (0000ms, 0347ms total)
T0C2C 005:491 JLINK_ReadReg(FPS14)  returns 0x00000000 (0000ms, 0347ms total)
T0C2C 005:491 JLINK_ReadReg(FPS15)  returns 0x00000000 (0000ms, 0347ms total)
T0C2C 005:491 JLINK_ReadReg(FPS16)  returns 0x00000000 (0000ms, 0347ms total)
T0C2C 005:491 JLINK_ReadReg(FPS17)  returns 0x42B40000 (0000ms, 0347ms total)
T0C2C 005:491 JLINK_ReadReg(FPS18)  returns 0x42B40000 (0000ms, 0347ms total)
T0C2C 005:491 JLINK_ReadReg(FPS19)  returns 0x00000000 (0000ms, 0347ms total)
T0C2C 005:491 JLINK_ReadReg(FPS20)  returns 0x00000000 (0000ms, 0347ms total)
T0C2C 005:491 JLINK_ReadReg(FPS21)  returns 0x00000000 (0000ms, 0347ms total)
T0C2C 005:491 JLINK_ReadReg(FPS22)  returns 0x00000000 (0000ms, 0347ms total)
T0C2C 005:491 JLINK_ReadReg(FPS23)  returns 0x00000000 (0000ms, 0347ms total)
T0C2C 005:491 JLINK_ReadReg(FPS24)  returns 0x00000000 (0000ms, 0347ms total)
T0C2C 005:491 JLINK_ReadReg(FPS25)  returns 0x00000000 (0000ms, 0347ms total)
T0C2C 005:491 JLINK_ReadReg(FPS26)  returns 0x00000000 (0000ms, 0347ms total)
T0C2C 005:491 JLINK_ReadReg(FPS27)  returns 0x00000000 (0000ms, 0347ms total)
T0C2C 005:491 JLINK_ReadReg(FPS28)  returns 0x00000000 (0000ms, 0347ms total)
T0C2C 005:491 JLINK_ReadReg(FPS29)  returns 0x00000000 (0001ms, 0348ms total)
T0C2C 005:492 JLINK_ReadReg(FPS30)  returns 0x00000000 (0000ms, 0348ms total)
T0C2C 005:492 JLINK_ReadReg(FPS31)  returns 0x00000000 (0000ms, 0348ms total)
T0A40 005:496 JLINK_ReadMemEx(0x20002CEC, 0x0004 Bytes, ..., AccessWidth = 33554432)Mis-aligned memory write: Address: 0x20002CEC, NumBytes: 4, Alignment: 2 (Halfword-aligned)
  ***** Mis-aligned memory write: Address: 0x20002CEC, NumBytes: 4, Alignment: 2 (Halfword-aligned) -- CPU_ReadMem(4 bytes @ 0x20002CEC) -- Data:  4D FE 00 08  returns 0x04 (0002ms, 0350ms total)
T0A40 005:498 JLINK_ReadMemEx(0x20002CD8, 0x0004 Bytes, ..., AccessWidth = 33554432)Mis-aligned memory write: Address: 0x20002CD8, NumBytes: 4, Alignment: 2 (Halfword-aligned)
  ***** Mis-aligned memory write: Address: 0x20002CD8, NumBytes: 4, Alignment: 2 (Halfword-aligned) -- CPU_ReadMem(4 bytes @ 0x20002CD8) -- Data:  F4 2C 00 20  returns 0x04 (0001ms, 0351ms total)
T0A40 005:499 JLINK_ReadMemEx(0x20002CDC, 0x0004 Bytes, ..., AccessWidth = 33554432)Mis-aligned memory write: Address: 0x20002CDC, NumBytes: 4, Alignment: 2 (Halfword-aligned)
  ***** Mis-aligned memory write: Address: 0x20002CDC, NumBytes: 4, Alignment: 2 (Halfword-aligned) -- CPU_ReadMem(4 bytes @ 0x20002CDC) -- Data:  54 2E 00 20  returns 0x04 (0001ms, 0352ms total)
T0A40 005:500 JLINK_ReadMemEx(0x20002CE0, 0x0004 Bytes, ..., AccessWidth = 33554432)Mis-aligned memory write: Address: 0x20002CE0, NumBytes: 4, Alignment: 2 (Halfword-aligned)
  ***** Mis-aligned memory write: Address: 0x20002CE0, NumBytes: 4, Alignment: 2 (Halfword-aligned) -- CPU_ReadMem(4 bytes @ 0x20002CE0) -- Data:  FF FF FF FF  returns 0x04 (0001ms, 0353ms total)
T0A40 005:501 JLINK_ReadMemEx(0x20002CE4, 0x0004 Bytes, ..., AccessWidth = 33554432)Mis-aligned memory write: Address: 0x20002CE4, NumBytes: 4, Alignment: 2 (Halfword-aligned)
  ***** Mis-aligned memory write: Address: 0x20002CE4, NumBytes: 4, Alignment: 2 (Halfword-aligned) -- CPU_ReadMem(4 bytes @ 0x20002CE4) -- Data:  88 2D 00 20  returns 0x04 (0001ms, 0354ms total)
T0A40 005:502 JLINK_ReadMemEx(0x20002CE8, 0x0004 Bytes, ..., AccessWidth = 33554432)Mis-aligned memory write: Address: 0x20002CE8, NumBytes: 4, Alignment: 2 (Halfword-aligned)
  ***** Mis-aligned memory write: Address: 0x20002CE8, NumBytes: 4, Alignment: 2 (Halfword-aligned) -- CPU_ReadMem(4 bytes @ 0x20002CE8) -- Data:  00 02 00 00  returns 0x04 (0002ms, 0356ms total)
T0A40 005:505 JLINK_ReadMemEx(0x00000000, 0x0004 Bytes, ..., AccessWidth = 33554432)Mis-aligned memory write: Address: 0x00000000, NumBytes: 4, Alignment: 2 (Halfword-aligned)
  ***** Mis-aligned memory write: Address: 0x00000000, NumBytes: 4, Alignment: 2 (Halfword-aligned) -- CPU_ReadMem(4 bytes @ 0x00000000) -- Data:  E8 78 00 20  returns 0x04 (0001ms, 0357ms total)
T0A40 005:507 JLINK_ReadMemEx(0x20003B4C, 0x0004 Bytes, ..., AccessWidth = 33554432)Mis-aligned memory write: Address: 0x20003B4C, NumBytes: 4, Alignment: 2 (Halfword-aligned)
